T2B88 000:046.772   SEGGER J-Link V7.56a Log File
T2B88 000:046.966   DLL Compiled: Oct 11 2021 16:27:21
T2B88 000:046.976   Logging started @ 2022-01-23 20:00
T2B88 000:046.985 - 46.990ms
T2B88 000:046.998 JLINK_SetWarnOutHandler(...)
T2B88 000:047.009 - 0.015ms
T2B88 000:047.020 JLINK_OpenEx(...)
T2B88 000:048.173   Firmware: J-Link OpenSDA compiled May 27 2019 10:59:53
T2B88 000:048.581   Firmware: J-Link OpenSDA compiled May 27 2019 10:59:53
T2B88 000:064.524   Hardware: V1.00
T2B88 000:064.550   S/N: 621000000
T2B88 000:064.563   OEM: SEGGER
T2B88 000:064.577   Feature(s): None
T2B88 000:065.617   TELNET listener socket opened on port 19021
T2B88 000:065.738   WEBSRV WEBSRV_Init(): Starting webserver thread(s)
T2B88 000:065.908   WEBSRV Webserver running on local port 19080
T2B88 000:071.062 - 24.065ms returns "O.K."
T2B88 000:071.102 JLINK_GetEmuCaps()
T2B88 000:071.111 - 0.014ms returns 0x986A5A33
T2B88 000:071.127 JLINK_TIF_GetAvailable(...)
T2B88 000:071.439 - 0.332ms
T2B88 000:071.468 JLINK_SetErrorOutHandler(...)
T2B88 000:071.477 - 0.013ms
T2B88 000:071.497 JLINK_ExecCommand("ProjectFile = "W:\Studia\SM2\PrzetwornikACCA\Cw_4\JLinkSettings.ini"", ...). 
T2B88 000:080.492   Ref file found at: W:\Studia\Keil_v5\ARM\Segger\JLinkDevices.ref
T2B88 000:080.617   XML referenced by ref file: C:\Program Files (x86)\SEGGER\JLink\JLinkDevices.xml
T2B88 000:081.422   C:\Program Files (x86)\SEGGER\JLink\JLinkDevices.xml evaluated successfully.
T2B88 000:137.567 - 66.081ms returns 0x00
T2B88 000:137.631 JLINK_ExecCommand("Device = MKL05Z32xxx4", ...). 
T2B88 000:137.780   Device "MKL05Z32XXX4" selected.
T2B88 000:138.131 - 0.493ms returns 0x00
T2B88 000:138.157 JLINK_ExecCommand("DisableConnectionTimeout", ...). 
T2B88 000:138.178 - 0.006ms returns 0x01
T2B88 000:138.190 JLINK_GetHardwareVersion()
T2B88 000:138.199 - 0.022ms returns 10000
T2B88 000:138.218 JLINK_GetDLLVersion()
T2B88 000:138.227 - 0.013ms returns 75601
T2B88 000:138.237 JLINK_GetOEMString(...)
T2B88 000:138.248 JLINK_GetFirmwareString(...)
T2B88 000:138.267 - 0.023ms
T2B88 000:138.301 JLINK_GetDLLVersion()
T2B88 000:138.311 - 0.014ms returns 75601
T2B88 000:138.330 JLINK_GetCompileDateTime()
T2B88 000:138.339 - 0.013ms
T2B88 000:138.355 JLINK_GetFirmwareString(...)
T2B88 000:138.364 - 0.014ms
T2B88 000:138.378 JLINK_GetHardwareVersion()
T2B88 000:138.397 - 0.022ms returns 10000
T2B88 000:138.413 JLINK_GetSN()
T2B88 000:138.422 - 0.013ms returns 621000000
T2B88 000:138.436 JLINK_GetOEMString(...)
T2B88 000:138.453 JLINK_TIF_Select(JLINKARM_TIF_SWD)
T2B88 000:139.252 - 0.816ms returns 0x00
T2B88 000:139.277 JLINK_HasError()
T2B88 000:139.301 JLINK_SetSpeed(5000)
T2B88 000:139.396 - 0.114ms
T2B88 000:139.424 JLINK_GetId()
T2B88 000:139.691   ConfigTargetSettings() start
T2B88 000:139.707    J-Link Script File: Executing ConfigTargetSettings()
T2B88 000:139.734   ConfigTargetSettings() end
T2B88 000:139.752   InitTarget() start
T2B88 000:139.765    J-Link Script File: Executing InitTarget()
T2B88 000:139.778   InitTarget()
T2B88 000:199.724   InitTarget() end
T2B88 000:200.601   Found SW-DP with ID 0x0BC11477
T2B88 000:205.387   Old FW that does not support reading DPIDR via DAP jobs
T2B88 000:210.270   DPv0 detected
T2B88 000:210.293   AP map detection skipped. Manually configured AP map found.
T2B88 000:210.315   AP[0]: AHB-AP (IDR: Not set)
T2B88 000:210.333   AP[1]: MEM-AP (IDR: Not set)
T2B88 000:215.802   AP[0]: Core found
T2B88 000:215.826   AP[0]: AHB-AP ROM base: 0xF0002000
T2B88 000:218.449   CPUID register: 0x410CC600. Implementer code: 0x41 (ARM)
T2B88 000:218.469   Found Cortex-M0 r0p0, Little endian.
T2B88 000:319.896   -- Max. mem block: 0x00000FA0
T2B88 000:320.083   CPU_ReadMem(4 bytes @ 0xE000EDF0)
T2B88 000:320.868   CPU_WriteMem(4 bytes @ 0xE000EDF0)
T2B88 000:321.467   CPU_ReadMem(4 bytes @ 0xE0002000)
T2B88 000:322.044   FPUnit: 2 code (BP) slots and 0 literal slots
T2B88 000:322.062   CPU_ReadMem(4 bytes @ 0xE000EDFC)
T2B88 000:322.625   CPU_WriteMem(4 bytes @ 0xE000EDFC)
T2B88 000:323.303   CPU_ReadMem(4 bytes @ 0xE0001000)
T2B88 000:323.890   CPU_WriteMem(4 bytes @ 0xE0001000)
T2B88 000:324.494   CoreSight components:
T2B88 000:324.515   ROMTbl[0] @ F0002000
T2B88 000:324.530   CPU_ReadMem(64 bytes @ 0xF0002000)
T2B88 000:325.750   CPU_ReadMem(32 bytes @ 0xF0000FE0)
T2B88 000:326.660   [0][0]: F0000000 CID B105900D PID 000BB932 MTB-M0+
T2B88 000:326.678   CPU_ReadMem(32 bytes @ 0xF0001FE0)
T2B88 000:327.511   [0][1]: F0001000 CID B105900D PID 0008E000 MTBDWT
T2B88 000:327.529   CPU_ReadMem(32 bytes @ 0xE00FFFE0)
T2B88 000:328.403   [0][2]: E00FF000 CID B105100D PID 000BB4C0 ROM Table
T2B88 000:328.434   ROMTbl[1] @ E00FF000
T2B88 000:328.459   CPU_ReadMem(64 bytes @ 0xE00FF000)
T2B88 000:329.673   CPU_ReadMem(32 bytes @ 0xE000EFE0)
T2B88 000:330.583   [1][0]: E000E000 CID B105E00D PID 000BB008 SCS
T2B88 000:330.601   CPU_ReadMem(32 bytes @ 0xE0001FE0)
T2B88 000:331.426   [1][1]: E0001000 CID B105E00D PID 000BB00A DWT
T2B88 000:331.443   CPU_ReadMem(32 bytes @ 0xE0002FE0)
T2B88 000:332.359   [1][2]: E0002000 CID B105E00D PID 000BB00B FPB
T2B88 000:333.019 - 193.619ms returns 0x0BC11477
T2B88 000:333.055 JLINK_GetDLLVersion()
T2B88 000:333.064 - 0.013ms returns 75601
T2B88 000:333.114 JLINK_CORE_GetFound()
T2B88 000:333.154 - 0.044ms returns 0x60000FF
T2B88 000:333.165 JLINK_GetDebugInfo(0x100 = JLINKARM_ROM_TABLE_ADDR_INDEX)
T2B88 000:333.176   Value=0xF0002000
T2B88 000:333.189 - 0.027ms returns 0
T2B88 000:333.207 JLINK_GetDebugInfo(0x100 = JLINKARM_ROM_TABLE_ADDR_INDEX)
T2B88 000:333.217   Value=0xF0002000
T2B88 000:333.230 - 0.027ms returns 0
T2B88 000:333.240 JLINK_GetDebugInfo(0x101 = JLINKARM_DEBUG_INFO_ETM_ADDR_INDEX)
T2B88 000:333.250   Value=0x00000000
T2B88 000:333.272 - 0.036ms returns 0
T2B88 000:333.307 JLINK_ReadMemEx(0xE0041FF0, 0x10 Bytes, Flags = 0x02000004)
T2B88 000:333.349   CPU_ReadMem(16 bytes @ 0xE0041FF0)
T2B88 000:334.073   Data:  00 00 00 00 00 00 00 00 00 00 00 00 00 00 00 00
T2B88 000:334.089 - 0.787ms returns 16 (0x10)
T2B88 000:334.102 JLINK_GetDebugInfo(0x102 = JLINKARM_DEBUG_INFO_MTB_ADDR_INDEX)
T2B88 000:334.112   Value=0xF0000000
T2B88 000:334.125 - 0.027ms returns 0
T2B88 000:334.135 JLINK_CORE_GetFound()
T2B88 000:334.144 - 0.013ms returns 0x60000FF
T2B88 000:334.154 JLINK_GetDebugInfo(0x103 = JLINKARM_DEBUG_INFO_TPIU_ADDR_INDEX)
T2B88 000:334.164   Value=0x00000000
T2B88 000:334.177 - 0.026ms returns 0
T2B88 000:334.187 JLINK_ReadMemEx(0xE0040FF0, 0x10 Bytes, Flags = 0x02000004)
T2B88 000:334.200   CPU_ReadMem(16 bytes @ 0xE0040FF0)
T2B88 000:334.862   Data:  00 00 00 00 00 00 00 00 00 00 00 00 00 00 00 00
T2B88 000:334.890 - 0.708ms returns 16 (0x10)
T2B88 000:334.903 JLINK_GetDebugInfo(0x104 = JLINKARM_DEBUG_INFO_ITM_ADDR_INDEX)
T2B88 000:334.912   Value=0xE0000000
T2B88 000:334.925 - 0.027ms returns 0
T2B88 000:334.936 JLINK_GetDebugInfo(0x105 = JLINKARM_DEBUG_INFO_DWT_ADDR_INDEX)
T2B88 000:334.945   Value=0xE0001000
T2B88 000:334.958 - 0.026ms returns 0
T2B88 000:334.968 JLINK_GetDebugInfo(0x106 = JLINKARM_DEBUG_INFO_FPB_ADDR_INDEX)
T2B88 000:334.977   Value=0xE0002000
T2B88 000:334.990 - 0.026ms returns 0
T2B88 000:335.001 JLINK_GetDebugInfo(0x107 = JLINKARM_DEBUG_INFO_NVIC_ADDR_INDEX)
T2B88 000:335.010   Value=0xE000E000
T2B88 000:335.023 - 0.026ms returns 0
T2B88 000:335.033 JLINK_GetDebugInfo(0x10C = JLINKARM_DEBUG_INFO_DBG_ADDR_INDEX)
T2B88 000:335.042   Value=0xE000EDF0
T2B88 000:335.055 - 0.026ms returns 0
T2B88 000:335.066 JLINK_GetDebugInfo(0x01 = Unknown)
T2B88 000:335.075   Value=0x00000000
T2B88 000:335.088 - 0.026ms returns 0
T2B88 000:335.098 JLINK_ReadMemU32(0xE000ED00, 0x1 Items)
T2B88 000:335.111   CPU_ReadMem(4 bytes @ 0xE000ED00)
T2B88 000:335.701   Data:  00 C6 0C 41
T2B88 000:335.729   Debug reg: CPUID
T2B88 000:335.742 - 0.648ms returns 1 (0x1)
T2B88 000:335.754 JLINK_GetDebugInfo(0x10F = JLINKARM_DEBUG_INFO_HAS_CORTEX_M_SECURITY_EXT_INDEX)
T2B88 000:335.764   Value=0x00000000
T2B88 000:335.777 - 0.027ms returns 0
T2B88 000:335.788 JLINK_HasError()
T2B88 000:335.801 JLINK_SetResetType(JLINKARM_CM3_RESET_TYPE_NORMAL)
T2B88 000:335.811 - 0.015ms returns JLINKARM_CM3_RESET_TYPE_NORMAL
T2B88 000:335.822 JLINK_Reset()
T2B88 000:335.840   CPU is running
T2B88 000:335.854   CPU_WriteMem(4 bytes @ 0xE000EDF0)
T2B88 000:336.399   CPU is running
T2B88 000:336.417   CPU_WriteMem(4 bytes @ 0xE000EDFC)
T2B88 000:336.986   Reset: Halt core after reset via DEMCR.VC_CORERESET.
T2B88 000:337.665   Reset: Reset device via AIRCR.SYSRESETREQ.
T2B88 000:337.682   CPU is running
T2B88 000:337.697   CPU_WriteMem(4 bytes @ 0xE000ED0C)
T2B88 000:390.365   CPU_ReadMem(4 bytes @ 0xE000EDF0)
T2B88 000:390.915   CPU_ReadMem(4 bytes @ 0xE000EDF0)
T2B88 000:391.470   CPU is running
T2B88 000:391.499   CPU_WriteMem(4 bytes @ 0xE000EDF0)
T2B88 000:392.033   CPU is running
T2B88 000:392.063   CPU_WriteMem(4 bytes @ 0xE000EDFC)
T2B88 000:398.708   CPU_ReadMem(4 bytes @ 0xE000EDF0)
T2B88 000:404.419   CPU_WriteMem(4 bytes @ 0xE0002000)
T2B88 000:405.030   CPU_ReadMem(4 bytes @ 0xE000EDFC)
T2B88 000:405.579   CPU_ReadMem(4 bytes @ 0xE0001000)
T2B88 000:406.126   CPU_WriteMem(4 bytes @ 0xE0001000)
T2B88 000:406.782 - 70.968ms
T2B88 000:406.869 JLINK_HasError()
T2B88 000:406.908 JLINK_ReadReg(R15 (PC))
T2B88 000:406.920 - 0.016ms returns 0x000002D4
T2B88 000:406.931 JLINK_ReadReg(XPSR)
T2B88 000:406.940 - 0.014ms returns 0x81000000
T2B88 000:406.951 JLINK_Halt()
T2B88 000:406.960 - 0.013ms returns 0x00
T2B88 000:406.970 JLINK_ReadMemU32(0xE000EDF0, 0x1 Items)
T2B88 000:406.983   CPU_ReadMem(4 bytes @ 0xE000EDF0)
T2B88 000:407.496   Data:  03 00 03 00
T2B88 000:407.524   Debug reg: DHCSR
T2B88 000:407.537 - 0.571ms returns 1 (0x1)
T2B88 000:407.553 JLINK_WriteU32_64(0xE000EDF0, 0xA05F0003)
T2B88 000:407.563   Debug reg: DHCSR
T2B88 000:407.850   CPU_WriteMem(4 bytes @ 0xE000EDF0)
T2B88 000:408.357 - 0.822ms returns 0 (0x00000000)
T2B88 000:408.383 JLINK_WriteU32_64(0xE000EDFC, 0x01000000)
T2B88 000:408.393   Debug reg: DEMCR
T2B88 000:408.411   CPU_WriteMem(4 bytes @ 0xE000EDFC)
T2B88 000:408.997 - 0.633ms returns 0 (0x00000000)
T2B88 000:409.049 JLINK_GetHWStatus(...)
T2B88 000:409.312 - 0.283ms returns 0
T2B88 000:409.356 JLINK_GetNumBPUnits(Type = 0xFFFFFF00)
T2B88 000:409.367 - 0.015ms returns 0x02
T2B88 000:409.377 JLINK_GetNumBPUnits(Type = 0xF0)
T2B88 000:409.386 - 0.013ms returns 0x2000
T2B88 000:409.397 JLINK_GetNumWPUnits()
T2B88 000:409.406 - 0.013ms returns 2
T2B88 000:409.425 JLINK_GetSpeed()
T2B88 000:409.434 - 0.013ms returns 1429
T2B88 000:409.450 JLINK_ReadMemU32(0xE000E004, 0x1 Items)
T2B88 000:409.465   CPU_ReadMem(4 bytes @ 0xE000E004)
T2B88 000:410.019   Data:  00 00 00 00
T2B88 000:410.047 - 0.601ms returns 1 (0x1)
T2B88 000:410.068 JLINK_HasError()
T2B88 000:410.080 JLINK_ReadReg(R15 (PC))
T2B88 000:410.091 - 0.016ms returns 0x000002D4
T2B88 000:410.102 JLINK_ReadReg(XPSR)
T2B88 000:410.112 - 0.014ms returns 0x81000000
T2B88 000:421.540 JLINK_ReadMemU32(0xF000000C, 0x1 Items)
T2B88 000:421.575   CPU_ReadMem(4 bytes @ 0xF000000C)
T2B88 000:422.101   Data:  00 FC FF 1F
T2B88 000:422.128 - 0.593ms returns 1 (0x1)
T2B88 000:488.072 JLINK_HasError()
T2B88 000:488.095 JLINK_SetResetType(JLINKARM_CM3_RESET_TYPE_NORMAL)
T2B88 000:488.105 - 0.014ms returns JLINKARM_CM3_RESET_TYPE_NORMAL
T2B88 000:488.116 JLINK_Reset()
T2B88 000:488.134   CPU_WriteMem(4 bytes @ 0xE000EDF0)
T2B88 000:488.778   CPU_WriteMem(4 bytes @ 0xE000EDFC)
T2B88 000:489.327   Reset: Halt core after reset via DEMCR.VC_CORERESET.
T2B88 000:489.999   Reset: Reset device via AIRCR.SYSRESETREQ.
T2B88 000:490.018   CPU_WriteMem(4 bytes @ 0xE000ED0C)
T2B88 000:543.324   CPU_ReadMem(4 bytes @ 0xE000EDF0)
T2B88 000:543.867   CPU_ReadMem(4 bytes @ 0xE000EDF0)
T2B88 000:544.424   CPU_WriteMem(4 bytes @ 0xE000EDF0)
T2B88 000:545.032   CPU_WriteMem(4 bytes @ 0xE000EDFC)
T2B88 000:550.674   CPU_ReadMem(4 bytes @ 0xE000EDF0)
T2B88 000:556.338   CPU_WriteMem(4 bytes @ 0xE0002000)
T2B88 000:556.874   CPU_ReadMem(4 bytes @ 0xE000EDFC)
T2B88 000:557.420   CPU_ReadMem(4 bytes @ 0xE0001000)
T2B88 000:557.972   CPU_WriteMem(4 bytes @ 0xE0001000)
T2B88 000:558.573 - 70.476ms
T2B88 000:558.663 JLINK_HasError()
T2B88 000:558.687 JLINK_ReadReg(R15 (PC))
T2B88 000:558.709 - 0.037ms returns 0x000002D4
T2B88 000:558.731 JLINK_ReadReg(XPSR)
T2B88 000:558.741 - 0.023ms returns 0x81000000
T2B88 000:559.904 JLINK_ReadMemEx(0x000002D4, 0x3C Bytes, Flags = 0x02000000)
T2B88 000:559.926   CPU_ReadMem(128 bytes @ 0x000002C0)
T2B88 000:561.851    -- Updating C cache (128 bytes @ 0x000002C0)
T2B88 000:561.881    -- Read from C cache (60 bytes @ 0x000002D4)
T2B88 000:561.896   Data:  07 48 80 47 07 48 00 47 FE E7 FE E7 FE E7 FE E7 ...
T2B88 000:561.909 - 2.009ms returns 60 (0x3C)
T2B88 000:561.921 JLINK_ReadMemEx(0x000002D4, 0x2 Bytes, Flags = 0x02000000)
T2B88 000:561.932    -- Read from C cache (2 bytes @ 0x000002D4)
T2B88 000:561.945   Data:  07 48
T2B88 000:561.958 - 0.041ms returns 2 (0x2)
T2B88 000:561.969 JLINK_ReadMemEx(0x000002D6, 0x2 Bytes, Flags = 0x02000000)
T2B88 000:561.979    -- Read from C cache (2 bytes @ 0x000002D6)
T2B88 000:561.992   Data:  80 47
T2B88 000:562.005 - 0.040ms returns 2 (0x2)
T2B88 000:562.023 JLINK_ReadMemEx(0x000002D6, 0x2 Bytes, Flags = 0x02000000)
T2B88 000:562.034    -- Read from C cache (2 bytes @ 0x000002D6)
T2B88 000:562.047   Data:  80 47
T2B88 000:562.060 - 0.041ms returns 2 (0x2)
T2B88 000:562.071 JLINK_ReadMemEx(0x000002D8, 0x3C Bytes, Flags = 0x02000000)
T2B88 000:562.081    -- Read from C cache (60 bytes @ 0x000002D8)
T2B88 000:562.094   Data:  07 48 00 47 FE E7 FE E7 FE E7 FE E7 FE E7 FE E7 ...
T2B88 000:562.107 - 0.041ms returns 60 (0x3C)
T2B88 000:562.118 JLINK_ReadMemEx(0x000002D8, 0x2 Bytes, Flags = 0x02000000)
T2B88 000:562.127    -- Read from C cache (2 bytes @ 0x000002D8)
T2B88 000:562.141   Data:  07 48
T2B88 000:562.154 - 0.040ms returns 2 (0x2)
T2B88 000:652.332 JLINK_ReadMemEx(0x4003B000, 0x2C Bytes, Flags = 0x02000004)
T2B88 000:652.367   CPU_ReadMem(44 bytes @ 0x4003B000)
T2B88 000:653.101   failed
T2B88 000:653.126 - 0.798ms returns -1 (0xFFFFFFFF)
T2B88 000:653.140 JLINK_ReadMemEx(0x4003B000, 0x4 Bytes, Flags = 0x02000004)
T2B88 000:653.153   CPU_ReadMem(4 bytes @ 0x4003B000)
T2B88 000:653.811   failed
T2B88 000:653.847 - 0.712ms returns -1 (0xFFFFFFFF)
T2B88 000:653.860 JLINK_ReadMemEx(0x4003B004, 0x4 Bytes, Flags = 0x02000004)
T2B88 000:653.883   CPU_ReadMem(4 bytes @ 0x4003B004)
T2B88 000:654.529   failed
T2B88 000:654.555 - 0.698ms returns -1 (0xFFFFFFFF)
T2B88 000:654.568 JLINK_ReadMemEx(0x4003B008, 0x4 Bytes, Flags = 0x02000004)
T2B88 000:654.581   CPU_ReadMem(4 bytes @ 0x4003B008)
T2B88 000:655.185   failed
T2B88 000:655.210 - 0.647ms returns -1 (0xFFFFFFFF)
T2B88 000:655.223 JLINK_ReadMemEx(0x4003B00C, 0x4 Bytes, Flags = 0x02000004)
T2B88 000:655.236   CPU_ReadMem(4 bytes @ 0x4003B00C)
T2B88 000:655.853   failed
T2B88 000:655.870 - 0.651ms returns -1 (0xFFFFFFFF)
T2B88 000:655.883 JLINK_ReadMemEx(0x4003B010, 0x4 Bytes, Flags = 0x02000004)
T2B88 000:655.896   CPU_ReadMem(4 bytes @ 0x4003B010)
T2B88 000:656.473   failed
T2B88 000:656.489 - 0.611ms returns -1 (0xFFFFFFFF)
T2B88 000:656.502 JLINK_ReadMemEx(0x4003B014, 0x4 Bytes, Flags = 0x02000004)
T2B88 000:656.515   CPU_ReadMem(4 bytes @ 0x4003B014)
T2B88 000:657.127   failed
T2B88 000:657.143 - 0.646ms returns -1 (0xFFFFFFFF)
T2B88 000:657.156 JLINK_ReadMemEx(0x4003B018, 0x4 Bytes, Flags = 0x02000004)
T2B88 000:657.169   CPU_ReadMem(4 bytes @ 0x4003B018)
T2B88 000:657.788   failed
T2B88 000:657.804 - 0.652ms returns -1 (0xFFFFFFFF)
T2B88 000:657.817 JLINK_ReadMemEx(0x4003B01C, 0x4 Bytes, Flags = 0x02000004)
T2B88 000:657.830   CPU_ReadMem(4 bytes @ 0x4003B01C)
T2B88 000:658.387   failed
T2B88 000:658.403 - 0.590ms returns -1 (0xFFFFFFFF)
T2B88 000:658.416 JLINK_ReadMemEx(0x4003B020, 0x4 Bytes, Flags = 0x02000004)
T2B88 000:658.429   CPU_ReadMem(4 bytes @ 0x4003B020)
T2B88 000:658.979   failed
T2B88 000:658.996 - 0.584ms returns -1 (0xFFFFFFFF)
T2B88 000:659.020 JLINK_ReadMemEx(0x4003B024, 0x4 Bytes, Flags = 0x02000004)
T2B88 000:659.085   CPU_ReadMem(4 bytes @ 0x4003B024)
T2B88 000:659.668   failed
T2B88 000:659.685 - 0.679ms returns -1 (0xFFFFFFFF)
T2B88 000:659.698 JLINK_ReadMemEx(0x4003B028, 0x4 Bytes, Flags = 0x02000004)
T2B88 000:659.711   CPU_ReadMem(4 bytes @ 0x4003B028)
T2B88 000:660.305   failed
T2B88 000:660.321 - 0.628ms returns -1 (0xFFFFFFFF)
T2B88 000:660.337 JLINK_ReadMemEx(0x4003B02C, 0x4 Bytes, Flags = 0x02000004)
T2B88 000:660.361   CPU_ReadMem(4 bytes @ 0x4003B02C)
T2B88 000:660.979   failed
T2B88 000:660.996 - 0.663ms returns -1 (0xFFFFFFFF)
T2B88 000:661.010 JLINK_ReadMemEx(0x4003B02C, 0x4 Bytes, Flags = 0x02000004)
T2B88 000:661.034   CPU_ReadMem(4 bytes @ 0x4003B02C)
T2B88 000:661.658   failed
T2B88 000:661.674 - 0.669ms returns -1 (0xFFFFFFFF)
T2B88 000:661.689 JLINK_ReadMemEx(0x4003B034, 0x18 Bytes, Flags = 0x02000004)
T2B88 000:661.713   CPU_ReadMem(24 bytes @ 0x4003B034)
T2B88 000:662.360   failed
T2B88 000:662.376 - 0.691ms returns -1 (0xFFFFFFFF)
T2B88 000:662.390 JLINK_ReadMemEx(0x4003B034, 0x4 Bytes, Flags = 0x02000004)
T2B88 000:662.414   CPU_ReadMem(4 bytes @ 0x4003B034)
T2B88 000:663.031   failed
T2B88 000:663.047 - 0.661ms returns -1 (0xFFFFFFFF)
T2B88 000:663.061 JLINK_ReadMemEx(0x4003B038, 0x4 Bytes, Flags = 0x02000004)
T2B88 000:663.075   CPU_ReadMem(4 bytes @ 0x4003B038)
T2B88 000:663.710   failed
T2B88 000:663.726 - 0.669ms returns -1 (0xFFFFFFFF)
T2B88 000:663.740 JLINK_ReadMemEx(0x4003B03C, 0x4 Bytes, Flags = 0x02000004)
T2B88 000:663.754   CPU_ReadMem(4 bytes @ 0x4003B03C)
T2B88 000:664.376   failed
T2B88 000:664.392 - 0.657ms returns -1 (0xFFFFFFFF)
T2B88 000:664.407 JLINK_ReadMemEx(0x4003B040, 0x4 Bytes, Flags = 0x02000004)
T2B88 000:664.420   CPU_ReadMem(4 bytes @ 0x4003B040)
T2B88 000:665.058   failed
T2B88 000:665.074 - 0.671ms returns -1 (0xFFFFFFFF)
T2B88 000:665.088 JLINK_ReadMemEx(0x4003B044, 0x4 Bytes, Flags = 0x02000004)
T2B88 000:665.102   CPU_ReadMem(4 bytes @ 0x4003B044)
T2B88 000:665.762   failed
T2B88 000:665.779 - 0.695ms returns -1 (0xFFFFFFFF)
T2B88 000:665.793 JLINK_ReadMemEx(0x4003B048, 0x4 Bytes, Flags = 0x02000004)
T2B88 000:665.806   CPU_ReadMem(4 bytes @ 0x4003B048)
T2B88 000:666.423   failed
T2B88 000:666.439 - 0.650ms returns -1 (0xFFFFFFFF)
T2B88 000:666.453 JLINK_ReadMemEx(0x4003B04C, 0x4 Bytes, Flags = 0x02000004)
T2B88 000:666.467   CPU_ReadMem(4 bytes @ 0x4003B04C)
T2B88 000:667.093   failed
T2B88 000:667.109 - 0.660ms returns -1 (0xFFFFFFFF)
T2B88 000:667.124 JLINK_ReadMemEx(0x4003B04C, 0x4 Bytes, Flags = 0x02000004)
T2B88 000:667.137   CPU_ReadMem(4 bytes @ 0x4003B04C)
T2B88 000:667.761   failed
T2B88 000:667.777 - 0.658ms returns -1 (0xFFFFFFFF)
T2B88 001:785.424 JLINK_ReadMemEx(0x000002D4, 0x3C Bytes, Flags = 0x02000000)
T2B88 001:785.451    -- Read from C cache (60 bytes @ 0x000002D4)
T2B88 001:785.467   Data:  07 48 80 47 07 48 00 47 FE E7 FE E7 FE E7 FE E7 ...
T2B88 001:785.481 - 0.061ms returns 60 (0x3C)
T2B88 001:785.492 JLINK_ReadMemEx(0x000002D4, 0x2 Bytes, Flags = 0x02000000)
T2B88 001:785.503    -- Read from C cache (2 bytes @ 0x000002D4)
T2B88 001:785.516   Data:  07 48
T2B88 001:785.530 - 0.042ms returns 2 (0x2)
T2B88 001:785.541 JLINK_ReadMemEx(0x000002D6, 0x2 Bytes, Flags = 0x02000000)
T2B88 001:785.551    -- Read from C cache (2 bytes @ 0x000002D6)
T2B88 001:785.565   Data:  80 47
T2B88 001:785.578 - 0.041ms returns 2 (0x2)
T2B88 001:785.594 JLINK_ReadMemEx(0x000002D6, 0x2 Bytes, Flags = 0x02000000)
T2B88 001:785.605    -- Read from C cache (2 bytes @ 0x000002D6)
T2B88 001:785.618   Data:  80 47
T2B88 001:785.632 - 0.042ms returns 2 (0x2)
T2B88 001:785.643 JLINK_ReadMemEx(0x000002D8, 0x3C Bytes, Flags = 0x02000000)
T2B88 001:785.653    -- Read from C cache (60 bytes @ 0x000002D8)
T2B88 001:785.667   Data:  07 48 00 47 FE E7 FE E7 FE E7 FE E7 FE E7 FE E7 ...
T2B88 001:785.680 - 0.042ms returns 60 (0x3C)
T2B88 001:785.691 JLINK_ReadMemEx(0x000002D8, 0x2 Bytes, Flags = 0x02000000)
T2B88 001:785.701    -- Read from C cache (2 bytes @ 0x000002D8)
T2B88 001:785.714   Data:  07 48
T2B88 001:785.785 - 0.099ms returns 2 (0x2)
T2B88 001:785.801 JLINK_ReadMemEx(0x000002D8, 0x3C Bytes, Flags = 0x02000000)
T2B88 001:785.812    -- Read from C cache (60 bytes @ 0x000002D8)
T2B88 001:785.827   Data:  07 48 00 47 FE E7 FE E7 FE E7 FE E7 FE E7 FE E7 ...
T2B88 001:785.840 - 0.043ms returns 60 (0x3C)
T2B88 001:785.851 JLINK_ReadMemEx(0x000002D8, 0x2 Bytes, Flags = 0x02000000)
T2B88 001:785.861    -- Read from C cache (2 bytes @ 0x000002D8)
T2B88 001:785.874   Data:  07 48
T2B88 001:785.888 - 0.041ms returns 2 (0x2)
T2B88 001:785.899 JLINK_ReadMemEx(0x000002DA, 0x2 Bytes, Flags = 0x02000000)
T2B88 001:785.908    -- Read from C cache (2 bytes @ 0x000002DA)
T2B88 001:785.922   Data:  00 47
T2B88 001:785.935 - 0.041ms returns 2 (0x2)
T15F4 002:062.722 JLINK_ReadMemEx(0x000002D4, 0x2 Bytes, Flags = 0x02000000)
T15F4 002:062.748    -- Read from C cache (2 bytes @ 0x000002D4)
T15F4 002:062.762   Data:  07 48
T15F4 002:062.776 - 0.059ms returns 2 (0x2)
T15F4 002:062.788 JLINK_HasError()
T15F4 002:062.800 JLINK_SetBPEx(Addr = 0x000008C8, Type = 0xFFFFFFF2)
T15F4 002:062.819 - 0.024ms returns 0x00000001
T15F4 002:062.830 JLINK_HasError()
T15F4 002:062.841 JLINK_HasError()
T15F4 002:062.851 JLINK_ReadMemEx(0xF0000000, 0x8 Bytes, Flags = 0x02000004)
T15F4 002:062.865   CPU_ReadMem(8 bytes @ 0xF0000000)
T15F4 002:063.424   Data:  FC 5E 00 00 82 00 00 00
T15F4 002:063.443 - 0.596ms returns 8 (0x8)
T15F4 002:063.456 JLINK_Go()
T15F4 002:064.060   CPU_WriteMem(4 bytes @ 0xE0002000)
T15F4 002:064.719   CPU_ReadMem(4 bytes @ 0xE0001000)
T15F4 002:065.273   CPU_WriteMem(4 bytes @ 0xE0001000)
T15F4 002:065.292   CPU_WriteMem(4 bytes @ 0xE0002008)
T15F4 002:065.307   CPU_WriteMem(4 bytes @ 0xE000200C)
T15F4 002:066.659   CPU_WriteMem(4 bytes @ 0xE0001004)
T15F4 002:067.978 - 4.531ms
T15F4 002:168.363 JLINK_HasError()
T15F4 002:168.393 JLINK_IsHalted()
T15F4 002:173.369 - 4.998ms returns TRUE
T15F4 002:173.409 JLINK_HasError()
T15F4 002:173.432 JLINK_Halt()
T15F4 002:173.442 - 0.014ms returns 0x00
T15F4 002:173.453 JLINK_IsHalted()
T15F4 002:173.462 - 0.014ms returns TRUE
T15F4 002:173.473 JLINK_IsHalted()
T15F4 002:173.482 - 0.013ms returns TRUE
T15F4 002:173.493 JLINK_IsHalted()
T15F4 002:173.502 - 0.013ms returns TRUE
T15F4 002:173.513 JLINK_HasError()
T15F4 002:173.524 JLINK_ReadReg(R15 (PC))
T15F4 002:173.537 - 0.017ms returns 0x000008C8
T15F4 002:173.547 JLINK_ReadReg(XPSR)
T15F4 002:173.557 - 0.014ms returns 0x61000000
T15F4 002:173.570 JLINK_HasError()
T15F4 002:173.581 JLINK_ClrBPEx(BPHandle = 0x00000001)
T15F4 002:173.591 - 0.014ms returns 0x00
T15F4 002:173.602 JLINK_HasError()
T15F4 002:173.613 JLINK_HasError()
T15F4 002:173.623 JLINK_ReadMemU32(0xE000ED30, 0x1 Items)
T15F4 002:173.638   CPU_ReadMem(4 bytes @ 0xE000ED30)
T15F4 002:174.153   Data:  02 00 00 00
T15F4 002:174.171 - 0.552ms returns 1 (0x1)
T15F4 002:174.183 JLINK_ReadMemU32(0xE0001028, 0x1 Items)
T15F4 002:174.197   CPU_ReadMem(4 bytes @ 0xE0001028)
T15F4 002:174.724   Data:  00 00 00 00
T15F4 002:174.752   Debug reg: DWT_FUNC[0]
T15F4 002:174.766 - 0.587ms returns 1 (0x1)
T15F4 002:174.778 JLINK_ReadMemU32(0xE0001038, 0x1 Items)
T15F4 002:174.793   CPU_ReadMem(4 bytes @ 0xE0001038)
T15F4 002:175.328   Data:  00 00 00 00
T15F4 002:175.400   Debug reg: DWT_FUNC[1]
T15F4 002:175.418 - 0.644ms returns 1 (0x1)
T15F4 002:175.494 JLINK_HasError()
T15F4 002:175.531 JLINK_ReadReg(R0)
T15F4 002:175.549 - 0.022ms returns 0x1FFFFD10
T15F4 002:175.560 JLINK_ReadReg(R1)
T15F4 002:175.571 - 0.015ms returns 0x1FFFFD10
T15F4 002:175.582 JLINK_ReadReg(R2)
T15F4 002:175.592 - 0.014ms returns 0x1FFFFD10
T15F4 002:175.603 JLINK_ReadReg(R3)
T15F4 002:175.613 - 0.014ms returns 0x1FFFFD10
T15F4 002:175.624 JLINK_ReadReg(R4)
T15F4 002:175.633 - 0.014ms returns 0x000030C4
T15F4 002:175.644 JLINK_ReadReg(R5)
T15F4 002:175.654 - 0.014ms returns 0x1FFFFCB0
T15F4 002:175.665 JLINK_ReadReg(R6)
T15F4 002:175.675 - 0.014ms returns 0x00000000
T15F4 002:175.686 JLINK_ReadReg(R7)
T15F4 002:175.696 - 0.017ms returns 0x00000000
T15F4 002:175.712 JLINK_ReadReg(R8)
T15F4 002:175.728 - 0.021ms returns 0x00000000
T15F4 002:175.739 JLINK_ReadReg(R9)
T15F4 002:175.749 - 0.014ms returns 0x200001C8
T15F4 002:175.760 JLINK_ReadReg(R10)
T15F4 002:175.770 - 0.014ms returns 0x000030C4
T15F4 002:175.781 JLINK_ReadReg(R11)
T15F4 002:175.791 - 0.014ms returns 0x000030C4
T15F4 002:175.802 JLINK_ReadReg(R12)
T15F4 002:175.812 - 0.014ms returns 0x00000000
T15F4 002:175.823 JLINK_ReadReg(R13 (SP))
T15F4 002:175.833 - 0.015ms returns 0x20000010
T15F4 002:175.844 JLINK_ReadReg(R14)
T15F4 002:175.854 - 0.014ms returns 0x0000017D
T15F4 002:175.865 JLINK_ReadReg(R15 (PC))
T15F4 002:175.875 - 0.014ms returns 0x000008C8
T15F4 002:175.894 JLINK_ReadReg(XPSR)
T15F4 002:175.904 - 0.014ms returns 0x61000000
T15F4 002:175.915 JLINK_ReadReg(MSP)
T15F4 002:175.924 - 0.014ms returns 0x20000010
T15F4 002:175.935 JLINK_ReadReg(PSP)
T15F4 002:175.944 - 0.014ms returns 0x20000C00
T15F4 002:175.955 JLINK_ReadReg(CFBP)
T15F4 002:175.965 - 0.014ms returns 0x00000000
T2B88 002:177.337 JLINK_HasError()
T2B88 002:178.736 JLINK_ReadMemEx(0x1FFFFC30, 0x2 Bytes, Flags = 0x02000000)
T2B88 002:178.760   CPU_ReadMem(64 bytes @ 0x1FFFFC00)
T2B88 002:179.926    -- Updating C cache (64 bytes @ 0x1FFFFC00)
T2B88 002:179.944    -- Read from C cache (2 bytes @ 0x1FFFFC30)
T2B88 002:179.958   Data:  00 00
T2B88 002:179.972 - 1.240ms returns 2 (0x2)
T2B88 002:180.063 JLINK_ReadMemEx(0x1FFFFC30, 0x2 Bytes, Flags = 0x02000000)
T2B88 002:180.077    -- Read from C cache (2 bytes @ 0x1FFFFC30)
T2B88 002:180.091   Data:  00 00
T2B88 002:180.105 - 0.046ms returns 2 (0x2)
T2B88 002:183.923 JLINK_ReadMemEx(0x1FFFFC40, 0x4 Bytes, Flags = 0x02000000)
T2B88 002:183.945   CPU_ReadMem(64 bytes @ 0x1FFFFC40)
T2B88 002:185.166    -- Updating C cache (64 bytes @ 0x1FFFFC40)
T2B88 002:185.194    -- Read from C cache (4 bytes @ 0x1FFFFC40)
T2B88 002:185.226   Data:  00 00 00 00
T2B88 002:185.250 - 1.340ms returns 4 (0x4)
T2B88 002:185.320 JLINK_ReadMemEx(0x1FFFFC40, 0x4 Bytes, Flags = 0x02000000)
T2B88 002:185.343    -- Read from C cache (4 bytes @ 0x1FFFFC40)
T2B88 002:185.377   Data:  00 00 00 00
T2B88 002:185.401 - 0.095ms returns 4 (0x4)
T2B88 002:189.435 JLINK_ReadMemEx(0x1FFFFC44, 0x4 Bytes, Flags = 0x02000000)
T2B88 002:189.454    -- Read from C cache (4 bytes @ 0x1FFFFC44)
T2B88 002:189.468   Data:  00 00 00 00
T2B88 002:189.482 - 0.052ms returns 4 (0x4)
T2B88 002:189.506 JLINK_ReadMemEx(0x1FFFFC44, 0x4 Bytes, Flags = 0x02000000)
T2B88 002:189.518    -- Read from C cache (4 bytes @ 0x1FFFFC44)
T2B88 002:189.532   Data:  00 00 00 00
T2B88 002:189.546 - 0.043ms returns 4 (0x4)
T2B88 002:193.331 JLINK_ReadMemEx(0x1FFFFC10, 0x2 Bytes, Flags = 0x02000000)
T2B88 002:193.357    -- Read from C cache (2 bytes @ 0x1FFFFC10)
T2B88 002:193.371   Data:  00 00
T2B88 002:193.385 - 0.058ms returns 2 (0x2)
T2B88 002:193.413 JLINK_ReadMemEx(0x1FFFFC10, 0x2 Bytes, Flags = 0x02000000)
T2B88 002:193.425    -- Read from C cache (2 bytes @ 0x1FFFFC10)
T2B88 002:193.449   Data:  00 00
T2B88 002:193.473 - 0.064ms returns 2 (0x2)
T2B88 002:197.461 JLINK_ReadMemEx(0x1FFFFC12, 0x2 Bytes, Flags = 0x02000000)
T2B88 002:197.484    -- Read from C cache (2 bytes @ 0x1FFFFC12)
T2B88 002:197.498   Data:  00 00
T2B88 002:197.512 - 0.055ms returns 2 (0x2)
T2B88 002:197.538 JLINK_ReadMemEx(0x1FFFFC12, 0x2 Bytes, Flags = 0x02000000)
T2B88 002:197.550    -- Read from C cache (2 bytes @ 0x1FFFFC12)
T2B88 002:197.564   Data:  00 00
T2B88 002:197.578 - 0.044ms returns 2 (0x2)
T2B88 002:201.921 JLINK_ReadMemEx(0x1FFFFC14, 0x2 Bytes, Flags = 0x02000000)
T2B88 002:201.942    -- Read from C cache (2 bytes @ 0x1FFFFC14)
T2B88 002:201.957   Data:  00 00
T2B88 002:201.970 - 0.054ms returns 2 (0x2)
T2B88 002:201.995 JLINK_ReadMemEx(0x1FFFFC14, 0x2 Bytes, Flags = 0x02000000)
T2B88 002:202.007    -- Read from C cache (2 bytes @ 0x1FFFFC14)
T2B88 002:202.020   Data:  00 00
T2B88 002:202.033 - 0.043ms returns 2 (0x2)
T2B88 002:205.893 JLINK_ReadMemEx(0x4003B000, 0x2C Bytes, Flags = 0x02000004)
T2B88 002:205.921   CPU_ReadMem(44 bytes @ 0x4003B000)
T2B88 002:206.657   failed
T2B88 002:206.674 - 0.794ms returns -1 (0xFFFFFFFF)
T2B88 002:206.697 JLINK_ReadMemEx(0x4003B000, 0x4 Bytes, Flags = 0x02000004)
T2B88 002:206.711   CPU_ReadMem(4 bytes @ 0x4003B000)
T2B88 002:207.400   failed
T2B88 002:207.427 - 0.734ms returns -1 (0xFFFFFFFF)
T2B88 002:207.441 JLINK_ReadMemEx(0x4003B004, 0x4 Bytes, Flags = 0x02000004)
T2B88 002:207.456   CPU_ReadMem(4 bytes @ 0x4003B004)
T2B88 002:208.119   failed
T2B88 002:208.136 - 0.700ms returns -1 (0xFFFFFFFF)
T2B88 002:208.150 JLINK_ReadMemEx(0x4003B008, 0x4 Bytes, Flags = 0x02000004)
T2B88 002:208.165   CPU_ReadMem(4 bytes @ 0x4003B008)
T2B88 002:208.817   failed
T2B88 002:208.846 - 0.700ms returns -1 (0xFFFFFFFF)
T2B88 002:208.861 JLINK_ReadMemEx(0x4003B00C, 0x4 Bytes, Flags = 0x02000004)
T2B88 002:208.877   CPU_ReadMem(4 bytes @ 0x4003B00C)
T2B88 002:209.486   failed
T2B88 002:209.504 - 0.648ms returns -1 (0xFFFFFFFF)
T2B88 002:209.518 JLINK_ReadMemEx(0x4003B010, 0x4 Bytes, Flags = 0x02000004)
T2B88 002:209.533   CPU_ReadMem(4 bytes @ 0x4003B010)
T2B88 002:210.134   failed
T2B88 002:210.152 - 0.639ms returns -1 (0xFFFFFFFF)
T2B88 002:210.166 JLINK_ReadMemEx(0x4003B014, 0x4 Bytes, Flags = 0x02000004)
T2B88 002:210.181   CPU_ReadMem(4 bytes @ 0x4003B014)
T2B88 002:210.766   failed
T2B88 002:210.784 - 0.622ms returns -1 (0xFFFFFFFF)
T2B88 002:210.798 JLINK_ReadMemEx(0x4003B018, 0x4 Bytes, Flags = 0x02000004)
T2B88 002:210.813   CPU_ReadMem(4 bytes @ 0x4003B018)
T2B88 002:211.391   failed
T2B88 002:211.408 - 0.614ms returns -1 (0xFFFFFFFF)
T2B88 002:211.421 JLINK_ReadMemEx(0x4003B01C, 0x4 Bytes, Flags = 0x02000004)
T2B88 002:211.435   CPU_ReadMem(4 bytes @ 0x4003B01C)
T2B88 002:212.064   failed
T2B88 002:212.080 - 0.663ms returns -1 (0xFFFFFFFF)
T2B88 002:212.093 JLINK_ReadMemEx(0x4003B020, 0x4 Bytes, Flags = 0x02000004)
T2B88 002:212.107   CPU_ReadMem(4 bytes @ 0x4003B020)
T2B88 002:212.784   failed
T2B88 002:212.801 - 0.712ms returns -1 (0xFFFFFFFF)
T2B88 002:212.814 JLINK_ReadMemEx(0x4003B024, 0x4 Bytes, Flags = 0x02000004)
T2B88 002:212.828   CPU_ReadMem(4 bytes @ 0x4003B024)
T2B88 002:213.418   failed
T2B88 002:213.434 - 0.625ms returns -1 (0xFFFFFFFF)
T2B88 002:213.447 JLINK_ReadMemEx(0x4003B028, 0x4 Bytes, Flags = 0x02000004)
T2B88 002:213.461   CPU_ReadMem(4 bytes @ 0x4003B028)
T2B88 002:214.044   failed
T2B88 002:214.060 - 0.617ms returns -1 (0xFFFFFFFF)
T2B88 002:214.074 JLINK_ReadMemEx(0x4003B02C, 0x4 Bytes, Flags = 0x02000004)
T2B88 002:214.088   CPU_ReadMem(4 bytes @ 0x4003B02C)
T2B88 002:214.677   failed
T2B88 002:214.693 - 0.624ms returns -1 (0xFFFFFFFF)
T2B88 002:214.706 JLINK_ReadMemEx(0x4003B02C, 0x4 Bytes, Flags = 0x02000004)
T2B88 002:214.720   CPU_ReadMem(4 bytes @ 0x4003B02C)
T2B88 002:215.312   failed
T2B88 002:215.329 - 0.627ms returns -1 (0xFFFFFFFF)
T2B88 002:215.342 JLINK_ReadMemEx(0x4003B034, 0x18 Bytes, Flags = 0x02000004)
T2B88 002:215.356   CPU_ReadMem(24 bytes @ 0x4003B034)
T2B88 002:215.956   failed
T2B88 002:215.972 - 0.634ms returns -1 (0xFFFFFFFF)
T2B88 002:215.985 JLINK_ReadMemEx(0x4003B034, 0x4 Bytes, Flags = 0x02000004)
T2B88 002:215.999   CPU_ReadMem(4 bytes @ 0x4003B034)
T2B88 002:216.598   failed
T2B88 002:216.614 - 0.634ms returns -1 (0xFFFFFFFF)
T2B88 002:216.627 JLINK_ReadMemEx(0x4003B038, 0x4 Bytes, Flags = 0x02000004)
T2B88 002:216.641   CPU_ReadMem(4 bytes @ 0x4003B038)
T2B88 002:217.246   failed
T2B88 002:217.274 - 0.651ms returns -1 (0xFFFFFFFF)
T2B88 002:217.296 JLINK_ReadMemEx(0x4003B03C, 0x4 Bytes, Flags = 0x02000004)
T2B88 002:217.311   CPU_ReadMem(4 bytes @ 0x4003B03C)
T2B88 002:217.914   failed
T2B88 002:217.931 - 0.639ms returns -1 (0xFFFFFFFF)
T2B88 002:217.945 JLINK_ReadMemEx(0x4003B040, 0x4 Bytes, Flags = 0x02000004)
T2B88 002:217.958   CPU_ReadMem(4 bytes @ 0x4003B040)
T2B88 002:218.550   failed
T2B88 002:218.567 - 0.627ms returns -1 (0xFFFFFFFF)
T2B88 002:218.580 JLINK_ReadMemEx(0x4003B044, 0x4 Bytes, Flags = 0x02000004)
T2B88 002:218.596   CPU_ReadMem(4 bytes @ 0x4003B044)
T2B88 002:219.154   failed
T2B88 002:219.170 - 0.595ms returns -1 (0xFFFFFFFF)
T2B88 002:219.183 JLINK_ReadMemEx(0x4003B048, 0x4 Bytes, Flags = 0x02000004)
T2B88 002:219.197   CPU_ReadMem(4 bytes @ 0x4003B048)
T2B88 002:219.779   failed
T2B88 002:219.795 - 0.616ms returns -1 (0xFFFFFFFF)
T2B88 002:219.809 JLINK_ReadMemEx(0x4003B04C, 0x4 Bytes, Flags = 0x02000004)
T2B88 002:219.822   CPU_ReadMem(4 bytes @ 0x4003B04C)
T2B88 002:220.415   failed
T2B88 002:220.431 - 0.627ms returns -1 (0xFFFFFFFF)
T2B88 002:220.444 JLINK_ReadMemEx(0x4003B04C, 0x4 Bytes, Flags = 0x02000004)
T2B88 002:220.458   CPU_ReadMem(4 bytes @ 0x4003B04C)
T2B88 002:221.039   failed
T2B88 002:221.056 - 0.616ms returns -1 (0xFFFFFFFF)
T2B88 002:223.260 JLINK_ReadMemEx(0x000008C6, 0x2 Bytes, Flags = 0x02000000)
T2B88 002:223.280   CPU_ReadMem(64 bytes @ 0x000008C0)
T2B88 002:224.491    -- Updating C cache (64 bytes @ 0x000008C0)
T2B88 002:224.508    -- Read from C cache (2 bytes @ 0x000008C6)
T2B88 002:224.522   Data:  F8 BD
T2B88 002:224.535 - 1.279ms returns 2 (0x2)
T2B88 002:224.548 JLINK_ReadMemEx(0x000008C8, 0x3C Bytes, Flags = 0x02000000)
T2B88 002:224.560   CPU_ReadMem(64 bytes @ 0x00000900)
T2B88 002:225.758    -- Updating C cache (64 bytes @ 0x00000900)
T2B88 002:225.778    -- Read from C cache (60 bytes @ 0x000008C8)
T2B88 002:225.813   Data:  08 B5 FF F7 5F FC 7E 48 C0 6B 01 21 49 06 08 43 ...
T2B88 002:225.827 - 1.283ms returns 60 (0x3C)
T2B88 002:225.839 JLINK_ReadMemEx(0x000008C8, 0x2 Bytes, Flags = 0x02000000)
T2B88 002:225.859    -- Read from C cache (2 bytes @ 0x000008C8)
T2B88 002:225.872   Data:  08 B5
T2B88 002:225.885 - 0.050ms returns 2 (0x2)
T2B88 002:225.909 JLINK_ReadMemEx(0x000008C8, 0x3C Bytes, Flags = 0x02000000)
T2B88 002:225.920    -- Read from C cache (60 bytes @ 0x000008C8)
T2B88 002:225.933   Data:  08 B5 FF F7 5F FC 7E 48 C0 6B 01 21 49 06 08 43 ...
T2B88 002:225.946 - 0.041ms returns 60 (0x3C)
T2B88 002:225.957 JLINK_ReadMemEx(0x000008C8, 0x2 Bytes, Flags = 0x02000000)
T2B88 002:225.967    -- Read from C cache (2 bytes @ 0x000008C8)
T2B88 002:225.980   Data:  08 B5
T2B88 002:225.993 - 0.040ms returns 2 (0x2)
T2B88 002:226.003 JLINK_ReadMemEx(0x000008CA, 0x2 Bytes, Flags = 0x02000000)
T2B88 002:226.013    -- Read from C cache (2 bytes @ 0x000008CA)
T2B88 002:226.026   Data:  FF F7
T2B88 002:226.039 - 0.040ms returns 2 (0x2)
T15F4 004:644.167 JLINK_ReadMemEx(0x000008C8, 0x2 Bytes, Flags = 0x02000000)
T15F4 004:644.193    -- Read from C cache (2 bytes @ 0x000008C8)
T15F4 004:644.208   Data:  08 B5
T15F4 004:644.222 - 0.059ms returns 2 (0x2)
T15F4 004:644.234 JLINK_HasError()
T15F4 004:644.245 JLINK_HasError()
T15F4 004:644.256 JLINK_Go()
T15F4 004:644.876   CPU_ReadMem(4 bytes @ 0xE0001000)
T15F4 004:645.444   CPU_WriteMem(4 bytes @ 0xE0001000)
T15F4 004:645.463   CPU_WriteMem(4 bytes @ 0xE0002008)
T15F4 004:647.280 - 3.032ms
T15F4 004:748.140 JLINK_HasError()
T15F4 004:748.173 JLINK_IsHalted()
T15F4 004:748.703 - 0.551ms returns FALSE
T15F4 004:848.842 JLINK_HasError()
T15F4 004:848.865 JLINK_IsHalted()
T15F4 004:849.418 - 0.573ms returns FALSE
T15F4 004:950.454 JLINK_HasError()
T15F4 004:950.476 JLINK_IsHalted()
T15F4 004:951.007 - 0.551ms returns FALSE
T15F4 005:051.101 JLINK_HasError()
T15F4 005:051.134 JLINK_IsHalted()
T15F4 005:051.676 - 0.562ms returns FALSE
T15F4 005:151.798 JLINK_HasError()
T15F4 005:151.821 JLINK_HasError()
T2B88 005:155.383 JLINK_ReadMemEx(0x1FFFFC30, 0x2 Bytes, Flags = 0x02000000)
T2B88 005:155.411   CPU_ReadMem(2 bytes @ 0x1FFFFC30)
T2B88 005:155.973   Data:  00 00
T2B88 005:155.999 - 0.621ms returns 2 (0x2)
T2B88 005:156.022 JLINK_ReadMemEx(0x1FFFFC40, 0x4 Bytes, Flags = 0x02000000)
T2B88 005:156.036   CPU_ReadMem(4 bytes @ 0x1FFFFC40)
T2B88 005:156.577   Data:  62 00 00 00
T2B88 005:156.605 - 0.587ms returns 4 (0x4)
T2B88 005:156.814 JLINK_ReadMemEx(0x1FFFFC44, 0x4 Bytes, Flags = 0x02000000)
T2B88 005:156.831   CPU_ReadMem(4 bytes @ 0x1FFFFC44)
T2B88 005:157.393   Data:  46 00 00 00
T2B88 005:157.422 - 0.612ms returns 4 (0x4)
T2B88 005:157.629 JLINK_ReadMemEx(0x1FFFFC10, 0x2 Bytes, Flags = 0x02000000)
T2B88 005:157.646   CPU_ReadMem(2 bytes @ 0x1FFFFC10)
T2B88 005:158.202   Data:  6B 08
T2B88 005:158.230 - 0.606ms returns 2 (0x2)
T2B88 005:160.181 JLINK_ReadMemEx(0x1FFFFC12, 0x2 Bytes, Flags = 0x02000000)
T2B88 005:160.204   CPU_ReadMem(2 bytes @ 0x1FFFFC12)
T2B88 005:160.765   Data:  5E FA
T2B88 005:160.793 - 0.616ms returns 2 (0x2)
T2B88 005:160.824 JLINK_ReadMemEx(0x1FFFFC14, 0x2 Bytes, Flags = 0x02000000)
T2B88 005:160.839   CPU_ReadMem(2 bytes @ 0x1FFFFC14)
T2B88 005:161.391   Data:  09 17
T2B88 005:161.419 - 0.599ms returns 2 (0x2)
T2B88 005:161.456 JLINK_ReadMemEx(0x4003B000, 0x2C Bytes, Flags = 0x02000004)
T2B88 005:161.472   CPU_ReadMem(44 bytes @ 0x4003B000)
T2B88 005:162.283   failed
T2B88 005:162.312 - 0.860ms returns -1 (0xFFFFFFFF)
T2B88 005:162.326 JLINK_ReadMemEx(0x4003B000, 0x4 Bytes, Flags = 0x02000004)
T2B88 005:162.340   CPU_ReadMem(4 bytes @ 0x4003B000)
T2B88 005:163.018   failed
T2B88 005:163.046 - 0.724ms returns -1 (0xFFFFFFFF)
T2B88 005:163.059 JLINK_ReadMemEx(0x4003B004, 0x4 Bytes, Flags = 0x02000004)
T2B88 005:163.073   CPU_ReadMem(4 bytes @ 0x4003B004)
T2B88 005:163.721   failed
T2B88 005:163.750 - 0.695ms returns -1 (0xFFFFFFFF)
T2B88 005:163.763 JLINK_ReadMemEx(0x4003B008, 0x4 Bytes, Flags = 0x02000004)
T2B88 005:163.777   CPU_ReadMem(4 bytes @ 0x4003B008)
T2B88 005:164.485   failed
T2B88 005:164.513 - 0.754ms returns -1 (0xFFFFFFFF)
T2B88 005:164.527 JLINK_ReadMemEx(0x4003B00C, 0x4 Bytes, Flags = 0x02000004)
T2B88 005:164.541   CPU_ReadMem(4 bytes @ 0x4003B00C)
T2B88 005:165.184   failed
T2B88 005:165.214 - 0.691ms returns -1 (0xFFFFFFFF)
T2B88 005:165.227 JLINK_ReadMemEx(0x4003B010, 0x4 Bytes, Flags = 0x02000004)
T2B88 005:165.241   CPU_ReadMem(4 bytes @ 0x4003B010)
T2B88 005:165.887   failed
T2B88 005:165.927 - 0.718ms returns -1 (0xFFFFFFFF)
T2B88 005:165.969 JLINK_ReadMemEx(0x4003B014, 0x4 Bytes, Flags = 0x02000004)
T2B88 005:165.993   CPU_ReadMem(4 bytes @ 0x4003B014)
T2B88 005:166.649   failed
T2B88 005:166.681 - 0.716ms returns -1 (0xFFFFFFFF)
T2B88 005:166.695 JLINK_ReadMemEx(0x4003B018, 0x4 Bytes, Flags = 0x02000004)
T2B88 005:166.709   CPU_ReadMem(4 bytes @ 0x4003B018)
T2B88 005:167.346   failed
T2B88 005:167.374 - 0.684ms returns -1 (0xFFFFFFFF)
T2B88 005:167.388 JLINK_ReadMemEx(0x4003B01C, 0x4 Bytes, Flags = 0x02000004)
T2B88 005:167.402   CPU_ReadMem(4 bytes @ 0x4003B01C)
T2B88 005:168.064   failed
T2B88 005:168.092 - 0.709ms returns -1 (0xFFFFFFFF)
T2B88 005:168.106 JLINK_ReadMemEx(0x4003B020, 0x4 Bytes, Flags = 0x02000004)
T2B88 005:168.120   CPU_ReadMem(4 bytes @ 0x4003B020)
T2B88 005:168.819   failed
T2B88 005:168.848 - 0.747ms returns -1 (0xFFFFFFFF)
T2B88 005:168.861 JLINK_ReadMemEx(0x4003B024, 0x4 Bytes, Flags = 0x02000004)
T2B88 005:168.875   CPU_ReadMem(4 bytes @ 0x4003B024)
T2B88 005:169.537   failed
T2B88 005:169.565 - 0.709ms returns -1 (0xFFFFFFFF)
T2B88 005:169.579 JLINK_ReadMemEx(0x4003B028, 0x4 Bytes, Flags = 0x02000004)
T2B88 005:169.593   CPU_ReadMem(4 bytes @ 0x4003B028)
T2B88 005:170.266   failed
T2B88 005:170.307 - 0.732ms returns -1 (0xFFFFFFFF)
T2B88 005:170.322 JLINK_ReadMemEx(0x4003B02C, 0x4 Bytes, Flags = 0x02000004)
T2B88 005:170.337   CPU_ReadMem(4 bytes @ 0x4003B02C)
T2B88 005:170.966   failed
T2B88 005:171.006 - 0.688ms returns -1 (0xFFFFFFFF)
T2B88 005:171.020 JLINK_ReadMemEx(0x4003B02C, 0x4 Bytes, Flags = 0x02000004)
T2B88 005:171.033   CPU_ReadMem(4 bytes @ 0x4003B02C)
T2B88 005:171.648   failed
T2B88 005:171.664 - 0.648ms returns -1 (0xFFFFFFFF)
T2B88 005:171.679 JLINK_ReadMemEx(0x4003B034, 0x18 Bytes, Flags = 0x02000004)
T2B88 005:171.692   CPU_ReadMem(24 bytes @ 0x4003B034)
T2B88 005:172.370   failed
T2B88 005:172.386 - 0.711ms returns -1 (0xFFFFFFFF)
T2B88 005:172.400 JLINK_ReadMemEx(0x4003B034, 0x4 Bytes, Flags = 0x02000004)
T2B88 005:172.412   CPU_ReadMem(4 bytes @ 0x4003B034)
T2B88 005:173.077   failed
T2B88 005:173.098 - 0.703ms returns -1 (0xFFFFFFFF)
T2B88 005:173.112 JLINK_ReadMemEx(0x4003B038, 0x4 Bytes, Flags = 0x02000004)
T2B88 005:173.125   CPU_ReadMem(4 bytes @ 0x4003B038)
T2B88 005:173.797   failed
T2B88 005:173.837 - 0.729ms returns -1 (0xFFFFFFFF)
T2B88 005:173.851 JLINK_ReadMemEx(0x4003B03C, 0x4 Bytes, Flags = 0x02000004)
T2B88 005:173.864   CPU_ReadMem(4 bytes @ 0x4003B03C)
T2B88 005:174.515   failed
T2B88 005:174.531 - 0.684ms returns -1 (0xFFFFFFFF)
T2B88 005:174.545 JLINK_ReadMemEx(0x4003B040, 0x4 Bytes, Flags = 0x02000004)
T2B88 005:174.558   CPU_ReadMem(4 bytes @ 0x4003B040)
T2B88 005:175.252   failed
T2B88 005:175.278 - 0.737ms returns -1 (0xFFFFFFFF)
T2B88 005:175.301 JLINK_ReadMemEx(0x4003B044, 0x4 Bytes, Flags = 0x02000004)
T2B88 005:175.337   CPU_ReadMem(4 bytes @ 0x4003B044)
T2B88 005:176.013   failed
T2B88 005:176.029 - 0.732ms returns -1 (0xFFFFFFFF)
T2B88 005:176.043 JLINK_ReadMemEx(0x4003B048, 0x4 Bytes, Flags = 0x02000004)
T2B88 005:176.076   CPU_ReadMem(4 bytes @ 0x4003B048)
T2B88 005:176.808   failed
T2B88 005:176.824 - 0.785ms returns -1 (0xFFFFFFFF)
T2B88 005:176.838 JLINK_ReadMemEx(0x4003B04C, 0x4 Bytes, Flags = 0x02000004)
T2B88 005:176.861   CPU_ReadMem(4 bytes @ 0x4003B04C)
T2B88 005:177.513   failed
T2B88 005:177.530 - 0.696ms returns -1 (0xFFFFFFFF)
T2B88 005:177.543 JLINK_ReadMemEx(0x4003B04C, 0x4 Bytes, Flags = 0x02000004)
T2B88 005:177.556   CPU_ReadMem(4 bytes @ 0x4003B04C)
T2B88 005:178.243   failed
T2B88 005:178.259 - 0.720ms returns -1 (0xFFFFFFFF)
T15F4 005:178.599 JLINK_IsHalted()
T15F4 005:179.148 - 0.557ms returns FALSE
T15F4 005:280.040 JLINK_HasError()
T15F4 005:280.063 JLINK_IsHalted()
T15F4 005:280.624 - 0.581ms returns FALSE
T15F4 005:380.784 JLINK_HasError()
T15F4 005:380.821 JLINK_IsHalted()
T15F4 005:381.401 - 0.598ms returns FALSE
T15F4 005:482.295 JLINK_HasError()
T15F4 005:482.328 JLINK_IsHalted()
T15F4 005:482.916 - 0.596ms returns FALSE
T15F4 005:583.302 JLINK_HasError()
T15F4 005:583.328 JLINK_IsHalted()
T15F4 005:583.926 - 0.619ms returns FALSE
T15F4 005:684.295 JLINK_HasError()
T15F4 005:684.316 JLINK_HasError()
T2B88 005:687.884 JLINK_ReadMemEx(0x1FFFFC30, 0x2 Bytes, Flags = 0x02000000)
T2B88 005:687.911   CPU_ReadMem(2 bytes @ 0x1FFFFC30)
T2B88 005:688.469   Data:  00 00
T2B88 005:688.497 - 0.617ms returns 2 (0x2)
T2B88 005:688.520 JLINK_ReadMemEx(0x1FFFFC40, 0x4 Bytes, Flags = 0x02000000)
T2B88 005:688.534   CPU_ReadMem(4 bytes @ 0x1FFFFC40)
T2B88 005:689.106   Data:  A5 02 00 00
T2B88 005:689.134 - 0.619ms returns 4 (0x4)
T2B88 005:689.508 JLINK_ReadMemEx(0x1FFFFC44, 0x4 Bytes, Flags = 0x02000000)
T2B88 005:689.526   CPU_ReadMem(4 bytes @ 0x1FFFFC44)
T2B88 005:690.084   Data:  89 02 00 00
T2B88 005:690.114 - 0.610ms returns 4 (0x4)
T2B88 005:690.486 JLINK_ReadMemEx(0x1FFFFC10, 0x2 Bytes, Flags = 0x02000000)
T2B88 005:690.504   CPU_ReadMem(2 bytes @ 0x1FFFFC10)
T2B88 005:691.068   Data:  52 08
T2B88 005:691.127 - 0.645ms returns 2 (0x2)
T2B88 005:694.793 JLINK_ReadMemEx(0x1FFFFC12, 0x2 Bytes, Flags = 0x02000000)
T2B88 005:694.812   CPU_ReadMem(2 bytes @ 0x1FFFFC12)
T2B88 005:695.362   Data:  77 FA
T2B88 005:695.391 - 0.602ms returns 2 (0x2)
T2B88 005:695.424 JLINK_ReadMemEx(0x1FFFFC14, 0x2 Bytes, Flags = 0x02000000)
T2B88 005:695.439   CPU_ReadMem(2 bytes @ 0x1FFFFC14)
T2B88 005:695.998   Data:  20 17
T2B88 005:696.026 - 0.606ms returns 2 (0x2)
T2B88 005:696.065 JLINK_ReadMemEx(0x4003B000, 0x2C Bytes, Flags = 0x02000004)
T2B88 005:696.081   CPU_ReadMem(44 bytes @ 0x4003B000)
T2B88 005:696.917   failed
T2B88 005:696.946 - 0.884ms returns -1 (0xFFFFFFFF)
T2B88 005:696.959 JLINK_ReadMemEx(0x4003B000, 0x4 Bytes, Flags = 0x02000004)
T2B88 005:696.973   CPU_ReadMem(4 bytes @ 0x4003B000)
T2B88 005:697.640   failed
T2B88 005:697.669 - 0.714ms returns -1 (0xFFFFFFFF)
T2B88 005:697.683 JLINK_ReadMemEx(0x4003B004, 0x4 Bytes, Flags = 0x02000004)
T2B88 005:697.697   CPU_ReadMem(4 bytes @ 0x4003B004)
T2B88 005:698.350   failed
T2B88 005:698.380 - 0.701ms returns -1 (0xFFFFFFFF)
T2B88 005:698.393 JLINK_ReadMemEx(0x4003B008, 0x4 Bytes, Flags = 0x02000004)
T2B88 005:698.413   CPU_ReadMem(4 bytes @ 0x4003B008)
T2B88 005:699.069   failed
T2B88 005:699.098 - 0.709ms returns -1 (0xFFFFFFFF)
T2B88 005:699.112 JLINK_ReadMemEx(0x4003B00C, 0x4 Bytes, Flags = 0x02000004)
T2B88 005:699.126   CPU_ReadMem(4 bytes @ 0x4003B00C)
T2B88 005:699.849   failed
T2B88 005:699.878 - 0.770ms returns -1 (0xFFFFFFFF)
T2B88 005:699.891 JLINK_ReadMemEx(0x4003B010, 0x4 Bytes, Flags = 0x02000004)
T2B88 005:699.905   CPU_ReadMem(4 bytes @ 0x4003B010)
T2B88 005:700.556   failed
T2B88 005:700.584 - 0.697ms returns -1 (0xFFFFFFFF)
T2B88 005:700.598 JLINK_ReadMemEx(0x4003B014, 0x4 Bytes, Flags = 0x02000004)
T2B88 005:700.612   CPU_ReadMem(4 bytes @ 0x4003B014)
T2B88 005:701.279   failed
T2B88 005:701.308 - 0.714ms returns -1 (0xFFFFFFFF)
T2B88 005:701.321 JLINK_ReadMemEx(0x4003B018, 0x4 Bytes, Flags = 0x02000004)
T2B88 005:701.335   CPU_ReadMem(4 bytes @ 0x4003B018)
T2B88 005:701.986   failed
T2B88 005:702.015 - 0.698ms returns -1 (0xFFFFFFFF)
T2B88 005:702.028 JLINK_ReadMemEx(0x4003B01C, 0x4 Bytes, Flags = 0x02000004)
T2B88 005:702.043   CPU_ReadMem(4 bytes @ 0x4003B01C)
T2B88 005:702.737   failed
T2B88 005:702.769 - 0.745ms returns -1 (0xFFFFFFFF)
T2B88 005:702.782 JLINK_ReadMemEx(0x4003B020, 0x4 Bytes, Flags = 0x02000004)
T2B88 005:702.796   CPU_ReadMem(4 bytes @ 0x4003B020)
T2B88 005:703.452   failed
T2B88 005:703.484 - 0.706ms returns -1 (0xFFFFFFFF)
T2B88 005:703.498 JLINK_ReadMemEx(0x4003B024, 0x4 Bytes, Flags = 0x02000004)
T2B88 005:703.512   CPU_ReadMem(4 bytes @ 0x4003B024)
T2B88 005:704.186   failed
T2B88 005:704.203 - 0.710ms returns -1 (0xFFFFFFFF)
T2B88 005:704.217 JLINK_ReadMemEx(0x4003B028, 0x4 Bytes, Flags = 0x02000004)
T2B88 005:704.231   CPU_ReadMem(4 bytes @ 0x4003B028)
T2B88 005:704.847   failed
T2B88 005:704.865 - 0.652ms returns -1 (0xFFFFFFFF)
T2B88 005:704.878 JLINK_ReadMemEx(0x4003B02C, 0x4 Bytes, Flags = 0x02000004)
T2B88 005:704.892   CPU_ReadMem(4 bytes @ 0x4003B02C)
T2B88 005:705.504   failed
T2B88 005:705.521 - 0.647ms returns -1 (0xFFFFFFFF)
T2B88 005:705.534 JLINK_ReadMemEx(0x4003B02C, 0x4 Bytes, Flags = 0x02000004)
T2B88 005:705.549   CPU_ReadMem(4 bytes @ 0x4003B02C)
T2B88 005:706.242   failed
T2B88 005:706.259 - 0.728ms returns -1 (0xFFFFFFFF)
T2B88 005:706.273 JLINK_ReadMemEx(0x4003B034, 0x18 Bytes, Flags = 0x02000004)
T2B88 005:706.287   CPU_ReadMem(24 bytes @ 0x4003B034)
T2B88 005:706.919   failed
T2B88 005:706.936 - 0.667ms returns -1 (0xFFFFFFFF)
T2B88 005:706.949 JLINK_ReadMemEx(0x4003B034, 0x4 Bytes, Flags = 0x02000004)
T2B88 005:706.963   CPU_ReadMem(4 bytes @ 0x4003B034)
T2B88 005:707.582   failed
T2B88 005:707.599 - 0.654ms returns -1 (0xFFFFFFFF)
T2B88 005:707.613 JLINK_ReadMemEx(0x4003B038, 0x4 Bytes, Flags = 0x02000004)
T2B88 005:707.627   CPU_ReadMem(4 bytes @ 0x4003B038)
T2B88 005:708.318   failed
T2B88 005:708.345 - 0.737ms returns -1 (0xFFFFFFFF)
T2B88 005:708.359 JLINK_ReadMemEx(0x4003B03C, 0x4 Bytes, Flags = 0x02000004)
T2B88 005:708.373   CPU_ReadMem(4 bytes @ 0x4003B03C)
T2B88 005:708.985   failed
T2B88 005:709.012 - 0.658ms returns -1 (0xFFFFFFFF)
T2B88 005:709.026 JLINK_ReadMemEx(0x4003B040, 0x4 Bytes, Flags = 0x02000004)
T2B88 005:709.041   CPU_ReadMem(4 bytes @ 0x4003B040)
T2B88 005:709.688   failed
T2B88 005:709.714 - 0.692ms returns -1 (0xFFFFFFFF)
T2B88 005:709.728 JLINK_ReadMemEx(0x4003B044, 0x4 Bytes, Flags = 0x02000004)
T2B88 005:709.743   CPU_ReadMem(4 bytes @ 0x4003B044)
T2B88 005:710.353   failed
T2B88 005:710.371 - 0.647ms returns -1 (0xFFFFFFFF)
T2B88 005:710.387 JLINK_ReadMemEx(0x4003B048, 0x4 Bytes, Flags = 0x02000004)
T2B88 005:710.411   CPU_ReadMem(4 bytes @ 0x4003B048)
T2B88 005:711.013   failed
T2B88 005:711.031 - 0.648ms returns -1 (0xFFFFFFFF)
T2B88 005:711.046 JLINK_ReadMemEx(0x4003B04C, 0x4 Bytes, Flags = 0x02000004)
T2B88 005:711.071   CPU_ReadMem(4 bytes @ 0x4003B04C)
T2B88 005:711.753   failed
T2B88 005:711.771 - 0.729ms returns -1 (0xFFFFFFFF)
T2B88 005:711.786 JLINK_ReadMemEx(0x4003B04C, 0x4 Bytes, Flags = 0x02000004)
T2B88 005:711.813   CPU_ReadMem(4 bytes @ 0x4003B04C)
T2B88 005:712.440   failed
T2B88 005:712.457 - 0.675ms returns -1 (0xFFFFFFFF)
T15F4 005:712.800 JLINK_IsHalted()
T15F4 005:713.336 - 0.543ms returns FALSE
T15F4 005:813.788 JLINK_HasError()
T15F4 005:813.813 JLINK_IsHalted()
T15F4 005:814.333 - 0.540ms returns FALSE
T15F4 005:914.921 JLINK_HasError()
T15F4 005:914.952 JLINK_IsHalted()
T15F4 005:915.520 - 0.588ms returns FALSE
T15F4 006:015.605 JLINK_HasError()
T15F4 006:015.627 JLINK_IsHalted()
T15F4 006:016.206 - 0.598ms returns FALSE
T15F4 006:116.296 JLINK_HasError()
T15F4 006:116.328 JLINK_IsHalted()
T15F4 006:116.908 - 0.601ms returns FALSE
T15F4 006:217.451 JLINK_HasError()
T15F4 006:217.484 JLINK_HasError()
